! Coilcraft 0806SQ-6N0 Air Core Inductor			
! 04 March 2008
# MHZ S MA R 50
!Freq             MagS11           AngS11           MagS21           AngS21           MagS12           AngS12           MagS22           AngS22
 100              0.0368502721     84.0162088       0.99688259      -2.18557853       0.99688259      -2.18557853       0.0368569186     84.0168947      
 125              0.046012913      84.2280693       0.996503104     -2.73153249       0.996503104     -2.73153249       0.0460212253     84.2286188      
 150              0.0551719386     84.1881835       0.996039695     -3.27719315       0.996039695     -3.27719315       0.055181914      84.1886419      
 175              0.0643232676     84.0043511       0.995492609     -3.82250235       0.995492609     -3.82250235       0.0643349036     84.0047441      
 200              0.0734639773     83.7306401       0.994862133     -4.36740216       0.994862133     -4.36740216       0.0734772713     83.7309841      
 225              0.0825916682     83.3971606       0.994148598     -4.911835         0.994148598     -4.911835         0.0826066173     83.3974664      
 250              0.0917042105     83.0220192       0.993352377     -5.45574362       0.993352377     -5.45574362       0.0917208116     83.0222945      
 275              0.100799629      82.616767        0.992473885     -5.99907114       0.992473885     -5.99907114       0.100817879      82.6170173      
 300              0.109876047      82.1891266       0.99151358      -6.54176114       0.99151358      -6.54176114       0.109895942      82.189356       
 325              0.118931656      81.7444634       0.990471958     -7.08375767       0.990471958     -7.08375767       0.118953192      81.7446752      
 350              0.127964698      81.2866264       0.989349557     -7.62500527       0.989349557     -7.62500527       0.127987871      81.286823       
 375              0.13697346       80.8184527       0.988146952     -8.16544904       0.988146952     -8.16544904       0.136998265      80.8186362      
 400              0.145956265      80.3420839       0.986864759     -8.70503468       0.986864759     -8.70503468       0.145982697      80.342256       
 425              0.154911468      79.8591698       0.985503629     -9.24370849       0.985503629     -9.24370849       0.154939523      79.8593317      
 450              0.16383746       79.371005        0.984064251     -9.78141744       0.984064251     -9.78141744       0.163867133      79.371158       
 475              0.172732662      78.8786222       0.982547347     -10.3181092       0.982547347     -10.3181092       0.172763946      78.8787671      
 500              0.181595525      78.3828571       0.980953677     -10.8537321       0.980953677     -10.8537321       0.181628415      78.3829947      
 525              0.190424536      77.8843954       0.979284031     -11.3882353       0.979284031     -11.3882353       0.190459025      77.8845265      
 550              0.199218209      77.3838067       0.977539232     -11.9215688       0.977539232     -11.9215688       0.199254291      77.3839317      
 575              0.207975094      76.8815691       0.975720135     -12.4536832       0.975720135     -12.4536832       0.208012762      76.8816887      
 600              0.216693772      76.3780887       0.973827623     -12.9845301       0.973827623     -12.9845301       0.216733019      76.3782033      
 625              0.225372859      75.8737133       0.97186261      -13.5140621       0.97186261      -13.5140621       0.225413678      75.8738233      
 650              0.234011005      75.3687436       0.969826036     -14.0422323       0.969826036     -14.0422323       0.234053388      75.3688494      
 675              0.242606893      74.8634417       0.967718866     -14.5689951       0.967718866     -14.5689951       0.242650834      74.8635435      
 700              0.251159245      74.3580379       0.965542092     -15.0943057       0.965542092     -15.0943057       0.251204734      74.3581361      
 725              0.259666816      73.8527359       0.963296728     -15.6181201       0.963296728     -15.6181201       0.259713846      73.8528307      
 750              0.268128398      73.347717        0.96098381      -16.1403955       0.96098381      -16.1403955       0.26817696       73.3478086      
 775              0.276542821      72.8431438       0.958604397     -16.66109         0.958604397     -16.66109         0.276592906      72.8432324      
 800              0.28490895       72.3391625       0.956159565     -17.1801627       0.956159565     -17.1801627       0.284960551      72.3392484      
 825              0.29322569       71.8359058       0.953650411     -17.6975738       0.953650411     -17.6975738       0.293278797      71.8359891      
 850              0.301491983      71.3334942       0.951078046     -18.2132844       0.951078046     -18.2132844       0.301546586      71.333575       
 875              0.309706809      70.8320378       0.9484436       -18.7272567       0.9484436       -18.7272567       0.309762899      70.8321164      
 900              0.317869186      70.3316377       0.945748214     -19.239454        0.945748214     -19.239454        0.317926754      70.3317141      
 925              0.325978172      69.8323869       0.942993044     -19.7498406       0.942993044     -19.7498406       0.326037208      69.8324611      
 950              0.334032861      69.3343711       0.940179258     -20.258382        0.940179258     -20.258382        0.334093355      69.3344433      
 975              0.342032389      68.8376699       0.937308034     -20.7650445       0.937308034     -20.7650445       0.34209433       68.8377403      
 1000             0.349975926      68.342357        0.934380559     -21.2697959       0.934380559     -21.2697959       0.350039306      68.3424256      
 1025             0.357862686      67.8485011       0.931398028     -21.7726046       0.931398028     -21.7726046       0.357927493      67.848568       
 1050             0.365691917      67.3561662       0.928361644     -22.2734405       0.928361644     -22.2734405       0.36575814       67.3562315      
 1075             0.373462906      66.8654119       0.925272613     -22.7722743       0.925272613     -22.7722743       0.373530536      66.8654757      
 1100             0.381174981      66.3762942       0.922132149     -23.269078        0.922132149     -23.269078        0.381244006      66.3763565      
 1125             0.388827504      65.8888652       0.918941465     -23.7638245       0.918941465     -23.7638245       0.388897914      65.8889262      
 1150             0.396419875      65.4031741       0.915701781     -24.2564878       0.915701781     -24.2564878       0.396491659      65.4032337      
 1175             0.403951534      64.9192666       0.912414313     -24.7470432       0.912414313     -24.7470432       0.40402468       64.9193249      
 1200             0.411421954      64.4371858       0.90908028      -25.2354667       0.90908028      -25.2354667       0.411496452      64.4372429      
 1225             0.418830647      63.9569721       0.905700901     -25.7217357       0.905700901     -25.7217357       0.418906485      63.9570281      
 1250             0.426177158      63.4786635       0.902277389     -26.2058284       0.902277389     -26.2058284       0.426254325      63.4787183      
 1275             0.433461071      63.0022956       0.898810958     -26.6877243       0.898810958     -26.6877243       0.433539556      63.0023493      
 1300             0.440682002      62.5279015       0.895302815     -27.1674036       0.895302815     -27.1674036       0.440761793      62.5279542      
 1325             0.447839602      62.0555128       0.891754163     -27.6448479       0.891754163     -27.6448479       0.447920687      62.0555645      
 1350             0.454933556      61.5851586       0.8881662       -28.1200395       0.8881662       -28.1200395       0.455015923      61.5852093      
 1375             0.461963581      61.1168663       0.884540117     -28.5929619       0.884540117     -28.5929619       0.462047219      61.1169161      
 1400             0.468929427      60.6506617       0.880877097     -29.0635995       0.880877097     -29.0635995       0.469014325      60.6507105      
 1425             0.475830878      60.1865685       0.877178315     -29.5319376       0.877178315     -29.5319376       0.475917023      60.1866165      
 1450             0.482667745      59.7246092       0.873444937     -29.9979627       0.873444937     -29.9979627       0.482755126      59.7246563      
 1475             0.489439872      59.2648044       0.86967812      -30.461662        0.86967812      -30.461662        0.489528477      59.2648507      
 1500             0.496147132      58.8071734       0.865879011     -30.9230238       0.865879011     -30.9230238       0.49623695       58.8072189      
 1525             0.502789428      58.351734        0.862048743     -31.3820372       0.862048743     -31.3820372       0.502880446      58.3517788      
 1550             0.509366691      57.8985026       0.858188442     -31.8386922       0.858188442     -31.8386922       0.509458897      57.8985467      
 1575             0.515878877      57.4474945       0.854299219     -32.2929799       0.854299219     -32.2929799       0.515972261      57.4475378      
 1600             0.522325973      56.9987233       0.850382172     -32.7448919       0.850382172     -32.7448919       0.522420521      56.998766       
 1625             0.528707989      56.5522018       0.846438388     -33.194421        0.846438388     -33.194421        0.52880369       56.5522438      
 1650             0.535024962      56.1079415       0.842468938     -33.6415606       0.842468938     -33.6415606       0.535121804      56.1079828      
 1675             0.541276952      55.6659526       0.838474882     -34.0863049       0.838474882     -34.0863049       0.541374923      55.6659933      
 1700             0.547464043      55.2262444       0.834457263     -34.5286492       0.834457263     -34.5286492       0.547563132      55.2262845      
 1725             0.553586345      54.788825        0.83041711      -34.9685892       0.83041711      -34.9685892       0.553686538      54.7888646      
 1750             0.559643985      54.3537018       0.826355437     -35.4061216       0.826355437     -35.4061216       0.559745273      54.3537407      
 1775             0.565637117      53.9208807       0.822273243     -35.8412436       0.822273243     -35.8412436       0.565739486      53.9209191      
 1800             0.571565911      53.4903672       0.818171511     -36.2739535       0.818171511     -36.2739535       0.571669351      53.4904051      
 1825             0.577430561      53.0621656       0.814051207     -36.7042499       0.814051207     -36.7042499       0.577535059      53.0622029      
 1850             0.583231277      52.6362793       0.809913283     -37.1321323       0.809913283     -37.1321323       0.583336822      52.6363161      
 1875             0.588968289      52.2127109       0.805758673     -37.5576009       0.805758673     -37.5576009       0.589074869      52.2127472      
 1900             0.594641846      51.7914623       0.801588296     -37.9806564       0.801588296     -37.9806564       0.594749449      51.7914981      
 1925             0.600252211      51.3725345       0.797403052     -38.4013002       0.797403052     -38.4013002       0.600360827      51.3725698      
 1950             0.605799667      50.9559278       0.793203827     -38.8195343       0.793203827     -38.8195343       0.605909283      50.9559627      
 1975             0.611284509      50.5416417       0.788991488     -39.2353614       0.788991488     -39.2353614       0.611395114      50.5416761      
 2000             0.616707049      50.129675        0.784766886     -39.6487844       0.784766886     -39.6487844       0.616818631      50.129709       
 2025             0.622067613      49.720026        0.780530856     -40.0598072       0.780530856     -40.0598072       0.622180162      49.7200596      
 2050             0.627366541      49.3126922       0.776284214     -40.4684341       0.776284214     -40.4684341       0.627480045      49.3127253      
 2075             0.632604184      48.9076703       0.77202776      -40.8746696       0.77202776      -40.8746696       0.632718632      48.9077031      
 2100             0.637780908      48.5049569       0.767762278     -41.2785193       0.767762278     -41.2785193       0.637896289      48.5049892      
 2125             0.642897089      48.1045474       0.763488534     -41.6799886       0.763488534     -41.6799886       0.643013391      48.1045794      
 2150             0.647953113      47.7064372       0.759207276     -42.0790839       0.759207276     -42.0790839       0.648070327      47.7064688      
 2175             0.652949379      47.3106208       0.754919237     -42.4758118       0.754919237     -42.4758118       0.653067493      47.310652       
 2200             0.657886294      46.9170924       0.750625133     -42.8701793       0.750625133     -42.8701793       0.658005297      46.9171232      
 2225             0.662764275      46.5258456       0.746325662     -43.262194        0.746325662     -43.262194        0.662884155      46.5258761      
 2250             0.667583746      46.1368735       0.742021508     -43.6518637       0.742021508     -43.6518637       0.667704494      46.1369036      
 2275             0.672345141      45.7501688       0.737713335     -44.0391966       0.737713335     -44.0391966       0.672466746      45.7501986      
 2300             0.677048901      45.3657239       0.733401794     -44.4242013       0.733401794     -44.4242013       0.677171353      45.3657534      
 2325             0.681695474      44.9835306       0.729087518     -44.8068869       0.729087518     -44.8068869       0.681818762      44.9835597      
 2350             0.686285315      44.6035803       0.724771124     -45.1872625       0.724771124     -45.1872625       0.686409428      44.6036092      
 2375             0.690818883      44.2258643       0.720453214     -45.5653379       0.720453214     -45.5653379       0.690943812      44.2258928      
 2400             0.695296645      43.8503731       0.716134373     -45.9411228       0.716134373     -45.9411228       0.695422379      43.8504013      
 2425             0.699719072      43.4770972       0.711815173     -46.3146276       0.711815173     -46.3146276       0.6998456        43.4771251      
 2450             0.704086639      43.1060267       0.707496167     -46.6858625       0.707496167     -46.6858625       0.704213953      43.1060543      
 2475             0.708399827      42.7371514       0.703177896     -47.0548384       0.703177896     -47.0548384       0.708527915      42.7371787      
 2500             0.712659119      42.3704607       0.698860884     -47.4215663       0.698860884     -47.4215663       0.712787972      42.3704878      
 2525             0.716865001      42.0059439       0.694545642     -47.7860572       0.694545642     -47.7860572       0.71699461       42.0059707      
 2550             0.721017965      41.6435899       0.690232665     -48.1483226       0.690232665     -48.1483226       0.721148319      41.6436164      
 2575             0.725118501      41.2833873       0.685922435     -48.5083742       0.685922435     -48.5083742       0.725249592      41.2834135      
 2600             0.729167106      40.9253246       0.681615419     -48.8662236       0.681615419     -48.8662236       0.729298924      40.9253506      
 2625             0.733164276      40.5693901       0.67731207      -49.221883        0.67731207      -49.221883        0.733296811      40.5694158      
 2650             0.737110509      40.2155718       0.673012828     -49.5753644       0.673012828     -49.5753644       0.737243751      40.2155973      
 2675             0.741006304      39.8638575       0.668718118     -49.9266802       0.668718118     -49.9266802       0.741140244      39.8638827      
 2700             0.744852161      39.5142349       0.664428356     -50.2758428       0.664428356     -50.2758428       0.744986791      39.5142598      
 2725             0.748648581      39.1666914       0.660143939     -50.6228648       0.660143939     -50.6228648       0.748783892      39.1667161      
 2750             0.752396065      38.8212144       0.655865257     -50.9677589       0.655865257     -50.9677589       0.752532047      38.8212389      
 2775             0.756095114      38.477791        0.651592684     -51.310538        0.651592684     -51.310538        0.75623176       38.4778153      
 2800             0.75974623       38.1364083       0.647326583     -51.6512149       0.647326583     -51.6512149       0.759883529      38.1364323      
 2825             0.763349912      37.7970531       0.643067304     -51.9898028       0.643067304     -51.9898028       0.763487856      37.797077       
 2850             0.766906659      37.4597124       0.638815187     -52.3263147       0.638815187     -52.3263147       0.76704524       37.459736       
 2875             0.770416971      37.1243726       0.634570559     -52.6607638       0.634570559     -52.6607638       0.77055618       37.124396       
 2900             0.773881345      36.7910205       0.630333736     -52.9931634       0.630333736     -52.9931634       0.774021173      36.7910437      
 2925             0.777300276      36.4596425       0.626105024     -53.3235267       0.626105024     -53.3235267       0.777440716      36.4596655      
 2950             0.78067426       36.1302251       0.621884717     -53.6518672       0.621884717     -53.6518672       0.780815303      36.1302479      
 2975             0.784003788      35.8027545       0.617673099     -53.9781982       0.617673099     -53.9781982       0.784145426      35.8027771      
 3000             0.787289351      35.4772171       0.613470443     -54.3025333       0.613470443     -54.3025333       0.787431576      35.4772395      
 3025             0.790531438      35.153599        0.609277012     -54.6248858       0.609277012     -54.6248858       0.790674241      35.1536212      
 3050             0.793730534      34.8318865       0.605093061     -54.9452692       0.605093061     -54.9452692       0.793873909      34.8319085      
 3075             0.796887124      34.5120656       0.600918832     -55.2636971       0.600918832     -55.2636971       0.797031062      34.5120875      
 3100             0.800001687      34.1941226       0.59675456      -55.580183        0.59675456      -55.580183        0.800146181      34.1941443      
 3125             0.803074704      33.8780434       0.592600471     -55.8947403       0.592600471     -55.8947403       0.803219745      33.8780649      
 3150             0.806106648      33.5638141       0.58845678      -56.2073826       0.58845678      -56.2073826       0.80625223       33.5638354      
 3175             0.809097992      33.2514207       0.584323695     -56.5181234       0.584323695     -56.5181234       0.809244107      33.2514419      
 3200             0.812049206      32.9408493       0.580201414     -56.8269761       0.580201414     -56.8269761       0.812195847      32.9408703      
 3225             0.814960756      32.6320859       0.576090129     -57.1339541       0.576090129     -57.1339541       0.815107915      32.6321067      
 3250             0.817833104      32.3251165       0.571990022     -57.4390709       0.571990022     -57.4390709       0.817980774      32.3251372      
